 * gnetlist -g spice-noqsi -o test_active_inductor.net test_active_inductor.sch
 AC Analysis  Sun Mar  4 09:52:30  2018
--------------------------------------------------------------------------------
Index   frequency       s11                             
--------------------------------------------------------------------------------
0	1.000000e+08	9.999748e-01,	-4.39809e-03	
1	1.001001e+08	9.999748e-01,	-4.40249e-03	
2	1.002002e+08	9.999747e-01,	-4.40689e-03	
3	1.003003e+08	9.999747e-01,	-4.41129e-03	
4	1.004004e+08	9.999746e-01,	-4.41569e-03	
5	1.005005e+08	9.999746e-01,	-4.42010e-03	
6	1.006006e+08	9.999745e-01,	-4.42450e-03	
7	1.007007e+08	9.999745e-01,	-4.42890e-03	
8	1.008008e+08	9.999744e-01,	-4.43330e-03	
9	1.009009e+08	9.999744e-01,	-4.43771e-03	
10	1.010010e+08	9.999743e-01,	-4.44211e-03	
11	1.011011e+08	9.999743e-01,	-4.44651e-03	
12	1.012012e+08	9.999742e-01,	-4.45091e-03	
13	1.013013e+08	9.999742e-01,	-4.45531e-03	
14	1.014014e+08	9.999741e-01,	-4.45972e-03	
15	1.015015e+08	9.999741e-01,	-4.46412e-03	
16	1.016016e+08	9.999740e-01,	-4.46852e-03	
17	1.017017e+08	9.999740e-01,	-4.47292e-03	
18	1.018018e+08	9.999739e-01,	-4.47733e-03	
19	1.019019e+08	9.999739e-01,	-4.48173e-03	
20	1.020020e+08	9.999738e-01,	-4.48613e-03	
21	1.021021e+08	9.999738e-01,	-4.49053e-03	
22	1.022022e+08	9.999737e-01,	-4.49493e-03	
23	1.023023e+08	9.999737e-01,	-4.49934e-03	
24	1.024024e+08	9.999736e-01,	-4.50374e-03	
25	1.025025e+08	9.999736e-01,	-4.50814e-03	
26	1.026026e+08	9.999735e-01,	-4.51254e-03	
27	1.027027e+08	9.999735e-01,	-4.51694e-03	
28	1.028028e+08	9.999734e-01,	-4.52135e-03	
29	1.029029e+08	9.999734e-01,	-4.52575e-03	
30	1.030030e+08	9.999733e-01,	-4.53015e-03	
31	1.031031e+08	9.999733e-01,	-4.53455e-03	
32	1.032032e+08	9.999732e-01,	-4.53896e-03	
33	1.033033e+08	9.999732e-01,	-4.54336e-03	
34	1.034034e+08	9.999731e-01,	-4.54776e-03	
35	1.035035e+08	9.999730e-01,	-4.55216e-03	
36	1.036036e+08	9.999730e-01,	-4.55656e-03	
37	1.037037e+08	9.999729e-01,	-4.56097e-03	
38	1.038038e+08	9.999729e-01,	-4.56537e-03	
39	1.039039e+08	9.999728e-01,	-4.56977e-03	
40	1.040040e+08	9.999728e-01,	-4.57417e-03	
41	1.041041e+08	9.999727e-01,	-4.57858e-03	
42	1.042042e+08	9.999727e-01,	-4.58298e-03	
43	1.043043e+08	9.999726e-01,	-4.58738e-03	
44	1.044044e+08	9.999726e-01,	-4.59178e-03	
45	1.045045e+08	9.999725e-01,	-4.59618e-03	
46	1.046046e+08	9.999725e-01,	-4.60059e-03	
47	1.047047e+08	9.999724e-01,	-4.60499e-03	
48	1.048048e+08	9.999724e-01,	-4.60939e-03	
49	1.049049e+08	9.999723e-01,	-4.61379e-03	
50	1.050050e+08	9.999723e-01,	-4.61819e-03	
51	1.051051e+08	9.999722e-01,	-4.62260e-03	
52	1.052052e+08	9.999722e-01,	-4.62700e-03	
53	1.053053e+08	9.999721e-01,	-4.63140e-03	
54	1.054054e+08	9.999720e-01,	-4.63580e-03	

Index   frequency       s11                             
--------------------------------------------------------------------------------
55	1.055055e+08	9.999720e-01,	-4.64021e-03	
56	1.056056e+08	9.999719e-01,	-4.64461e-03	
57	1.057057e+08	9.999719e-01,	-4.64901e-03	
58	1.058058e+08	9.999718e-01,	-4.65341e-03	
59	1.059059e+08	9.999718e-01,	-4.65781e-03	
60	1.060060e+08	9.999717e-01,	-4.66222e-03	
61	1.061061e+08	9.999717e-01,	-4.66662e-03	
62	1.062062e+08	9.999716e-01,	-4.67102e-03	
63	1.063063e+08	9.999716e-01,	-4.67542e-03	
64	1.064064e+08	9.999715e-01,	-4.67982e-03	
65	1.065065e+08	9.999715e-01,	-4.68423e-03	
66	1.066066e+08	9.999714e-01,	-4.68863e-03	
67	1.067067e+08	9.999714e-01,	-4.69303e-03	
68	1.068068e+08	9.999713e-01,	-4.69743e-03	
69	1.069069e+08	9.999712e-01,	-4.70184e-03	
70	1.070070e+08	9.999712e-01,	-4.70624e-03	
71	1.071071e+08	9.999711e-01,	-4.71064e-03	
72	1.072072e+08	9.999711e-01,	-4.71504e-03	
73	1.073073e+08	9.999710e-01,	-4.71944e-03	
74	1.074074e+08	9.999710e-01,	-4.72385e-03	
75	1.075075e+08	9.999709e-01,	-4.72825e-03	
76	1.076076e+08	9.999709e-01,	-4.73265e-03	
77	1.077077e+08	9.999708e-01,	-4.73705e-03	
78	1.078078e+08	9.999708e-01,	-4.74145e-03	
79	1.079079e+08	9.999707e-01,	-4.74586e-03	
80	1.080080e+08	9.999707e-01,	-4.75026e-03	
81	1.081081e+08	9.999706e-01,	-4.75466e-03	
82	1.082082e+08	9.999705e-01,	-4.75906e-03	
83	1.083083e+08	9.999705e-01,	-4.76347e-03	
84	1.084084e+08	9.999704e-01,	-4.76787e-03	
85	1.085085e+08	9.999704e-01,	-4.77227e-03	
86	1.086086e+08	9.999703e-01,	-4.77667e-03	
87	1.087087e+08	9.999703e-01,	-4.78107e-03	
88	1.088088e+08	9.999702e-01,	-4.78548e-03	
89	1.089089e+08	9.999702e-01,	-4.78988e-03	
90	1.090090e+08	9.999701e-01,	-4.79428e-03	
91	1.091091e+08	9.999700e-01,	-4.79868e-03	
92	1.092092e+08	9.999700e-01,	-4.80308e-03	
93	1.093093e+08	9.999699e-01,	-4.80749e-03	
94	1.094094e+08	9.999699e-01,	-4.81189e-03	
95	1.095095e+08	9.999698e-01,	-4.81629e-03	
96	1.096096e+08	9.999698e-01,	-4.82069e-03	
97	1.097097e+08	9.999697e-01,	-4.82510e-03	
98	1.098098e+08	9.999697e-01,	-4.82950e-03	
99	1.099099e+08	9.999696e-01,	-4.83390e-03	
100	1.100100e+08	9.999696e-01,	-4.83830e-03	
101	1.101101e+08	9.999695e-01,	-4.84270e-03	
102	1.102102e+08	9.999694e-01,	-4.84711e-03	
103	1.103103e+08	9.999694e-01,	-4.85151e-03	
104	1.104104e+08	9.999693e-01,	-4.85591e-03	
105	1.105105e+08	9.999693e-01,	-4.86031e-03	
106	1.106106e+08	9.999692e-01,	-4.86471e-03	
107	1.107107e+08	9.999692e-01,	-4.86912e-03	
108	1.108108e+08	9.999691e-01,	-4.87352e-03	
109	1.109109e+08	9.999691e-01,	-4.87792e-03	
110	1.110110e+08	9.999690e-01,	-4.88232e-03	
111	1.111111e+08	9.999689e-01,	-4.88672e-03	
112	1.112112e+08	9.999689e-01,	-4.89113e-03	

Index   frequency       s11                             
--------------------------------------------------------------------------------
113	1.113113e+08	9.999688e-01,	-4.89553e-03	
114	1.114114e+08	9.999688e-01,	-4.89993e-03	
115	1.115115e+08	9.999687e-01,	-4.90433e-03	
116	1.116116e+08	9.999687e-01,	-4.90873e-03	
117	1.117117e+08	9.999686e-01,	-4.91314e-03	
118	1.118118e+08	9.999685e-01,	-4.91754e-03	
119	1.119119e+08	9.999685e-01,	-4.92194e-03	
120	1.120120e+08	9.999684e-01,	-4.92634e-03	
121	1.121121e+08	9.999684e-01,	-4.93075e-03	
122	1.122122e+08	9.999683e-01,	-4.93515e-03	
123	1.123123e+08	9.999683e-01,	-4.93955e-03	
124	1.124124e+08	9.999682e-01,	-4.94395e-03	
125	1.125125e+08	9.999682e-01,	-4.94835e-03	
126	1.126126e+08	9.999681e-01,	-4.95276e-03	
127	1.127127e+08	9.999680e-01,	-4.95716e-03	
128	1.128128e+08	9.999680e-01,	-4.96156e-03	
129	1.129129e+08	9.999679e-01,	-4.96596e-03	
130	1.130130e+08	9.999679e-01,	-4.97036e-03	
131	1.131131e+08	9.999678e-01,	-4.97477e-03	
132	1.132132e+08	9.999678e-01,	-4.97917e-03	
133	1.133133e+08	9.999677e-01,	-4.98357e-03	
134	1.134134e+08	9.999676e-01,	-4.98797e-03	
135	1.135135e+08	9.999676e-01,	-4.99237e-03	
136	1.136136e+08	9.999675e-01,	-4.99678e-03	
137	1.137137e+08	9.999675e-01,	-5.00118e-03	
138	1.138138e+08	9.999674e-01,	-5.00558e-03	
139	1.139139e+08	9.999674e-01,	-5.00998e-03	
140	1.140140e+08	9.999673e-01,	-5.01438e-03	
141	1.141141e+08	9.999672e-01,	-5.01879e-03	
142	1.142142e+08	9.999672e-01,	-5.02319e-03	
143	1.143143e+08	9.999671e-01,	-5.02759e-03	
144	1.144144e+08	9.999671e-01,	-5.03199e-03	
145	1.145145e+08	9.999670e-01,	-5.03640e-03	
146	1.146146e+08	9.999670e-01,	-5.04080e-03	
147	1.147147e+08	9.999669e-01,	-5.04520e-03	
148	1.148148e+08	9.999668e-01,	-5.04960e-03	
149	1.149149e+08	9.999668e-01,	-5.05400e-03	
150	1.150150e+08	9.999667e-01,	-5.05841e-03	
151	1.151151e+08	9.999667e-01,	-5.06281e-03	
152	1.152152e+08	9.999666e-01,	-5.06721e-03	
153	1.153153e+08	9.999665e-01,	-5.07161e-03	
154	1.154154e+08	9.999665e-01,	-5.07601e-03	
155	1.155155e+08	9.999664e-01,	-5.08042e-03	
156	1.156156e+08	9.999664e-01,	-5.08482e-03	
157	1.157157e+08	9.999663e-01,	-5.08922e-03	
158	1.158158e+08	9.999663e-01,	-5.09362e-03	
159	1.159159e+08	9.999662e-01,	-5.09802e-03	
160	1.160160e+08	9.999661e-01,	-5.10243e-03	
161	1.161161e+08	9.999661e-01,	-5.10683e-03	
162	1.162162e+08	9.999660e-01,	-5.11123e-03	
163	1.163163e+08	9.999660e-01,	-5.11563e-03	
164	1.164164e+08	9.999659e-01,	-5.12003e-03	
165	1.165165e+08	9.999658e-01,	-5.12444e-03	
166	1.166166e+08	9.999658e-01,	-5.12884e-03	
167	1.167167e+08	9.999657e-01,	-5.13324e-03	
168	1.168168e+08	9.999657e-01,	-5.13764e-03	
169	1.169169e+08	9.999656e-01,	-5.14204e-03	
170	1.170170e+08	9.999656e-01,	-5.14645e-03	

Index   frequency       s11                             
--------------------------------------------------------------------------------
171	1.171171e+08	9.999655e-01,	-5.15085e-03	
172	1.172172e+08	9.999654e-01,	-5.15525e-03	
173	1.173173e+08	9.999654e-01,	-5.15965e-03	
174	1.174174e+08	9.999653e-01,	-5.16405e-03	
175	1.175175e+08	9.999653e-01,	-5.16846e-03	
176	1.176176e+08	9.999652e-01,	-5.17286e-03	
177	1.177177e+08	9.999651e-01,	-5.17726e-03	
178	1.178178e+08	9.999651e-01,	-5.18166e-03	
179	1.179179e+08	9.999650e-01,	-5.18606e-03	
180	1.180180e+08	9.999650e-01,	-5.19047e-03	
181	1.181181e+08	9.999649e-01,	-5.19487e-03	
182	1.182182e+08	9.999648e-01,	-5.19927e-03	
183	1.183183e+08	9.999648e-01,	-5.20367e-03	
184	1.184184e+08	9.999647e-01,	-5.20808e-03	
185	1.185185e+08	9.999647e-01,	-5.21248e-03	
186	1.186186e+08	9.999646e-01,	-5.21688e-03	
187	1.187187e+08	9.999645e-01,	-5.22128e-03	
188	1.188188e+08	9.999645e-01,	-5.22568e-03	
189	1.189189e+08	9.999644e-01,	-5.23009e-03	
190	1.190190e+08	9.999644e-01,	-5.23449e-03	
191	1.191191e+08	9.999643e-01,	-5.23889e-03	
192	1.192192e+08	9.999642e-01,	-5.24329e-03	
193	1.193193e+08	9.999642e-01,	-5.24769e-03	
194	1.194194e+08	9.999641e-01,	-5.25210e-03	
195	1.195195e+08	9.999641e-01,	-5.25650e-03	
196	1.196196e+08	9.999640e-01,	-5.26090e-03	
197	1.197197e+08	9.999639e-01,	-5.26530e-03	
198	1.198198e+08	9.999639e-01,	-5.26970e-03	
199	1.199199e+08	9.999638e-01,	-5.27411e-03	
200	1.200200e+08	9.999638e-01,	-5.27851e-03	
201	1.201201e+08	9.999637e-01,	-5.28291e-03	
202	1.202202e+08	9.999636e-01,	-5.28731e-03	
203	1.203203e+08	9.999636e-01,	-5.29171e-03	
204	1.204204e+08	9.999635e-01,	-5.29612e-03	
205	1.205205e+08	9.999635e-01,	-5.30052e-03	
206	1.206206e+08	9.999634e-01,	-5.30492e-03	
207	1.207207e+08	9.999633e-01,	-5.30932e-03	
208	1.208208e+08	9.999633e-01,	-5.31372e-03	
209	1.209209e+08	9.999632e-01,	-5.31813e-03	
210	1.210210e+08	9.999632e-01,	-5.32253e-03	
211	1.211211e+08	9.999631e-01,	-5.32693e-03	
212	1.212212e+08	9.999630e-01,	-5.33133e-03	
213	1.213213e+08	9.999630e-01,	-5.33573e-03	
214	1.214214e+08	9.999629e-01,	-5.34014e-03	
215	1.215215e+08	9.999628e-01,	-5.34454e-03	
216	1.216216e+08	9.999628e-01,	-5.34894e-03	
217	1.217217e+08	9.999627e-01,	-5.35334e-03	
218	1.218218e+08	9.999627e-01,	-5.35774e-03	
219	1.219219e+08	9.999626e-01,	-5.36215e-03	
220	1.220220e+08	9.999625e-01,	-5.36655e-03	
221	1.221221e+08	9.999625e-01,	-5.37095e-03	
222	1.222222e+08	9.999624e-01,	-5.37535e-03	
223	1.223223e+08	9.999624e-01,	-5.37975e-03	
224	1.224224e+08	9.999623e-01,	-5.38416e-03	
225	1.225225e+08	9.999622e-01,	-5.38856e-03	
226	1.226226e+08	9.999622e-01,	-5.39296e-03	
227	1.227227e+08	9.999621e-01,	-5.39736e-03	
228	1.228228e+08	9.999620e-01,	-5.40176e-03	

Index   frequency       s11                             
--------------------------------------------------------------------------------
229	1.229229e+08	9.999620e-01,	-5.40617e-03	
230	1.230230e+08	9.999619e-01,	-5.41057e-03	
231	1.231231e+08	9.999619e-01,	-5.41497e-03	
232	1.232232e+08	9.999618e-01,	-5.41937e-03	
233	1.233233e+08	9.999617e-01,	-5.42377e-03	
234	1.234234e+08	9.999617e-01,	-5.42818e-03	
235	1.235235e+08	9.999616e-01,	-5.43258e-03	
236	1.236236e+08	9.999616e-01,	-5.43698e-03	
237	1.237237e+08	9.999615e-01,	-5.44138e-03	
238	1.238238e+08	9.999614e-01,	-5.44578e-03	
239	1.239239e+08	9.999614e-01,	-5.45018e-03	
240	1.240240e+08	9.999613e-01,	-5.45459e-03	
241	1.241241e+08	9.999612e-01,	-5.45899e-03	
242	1.242242e+08	9.999612e-01,	-5.46339e-03	
243	1.243243e+08	9.999611e-01,	-5.46779e-03	
244	1.244244e+08	9.999611e-01,	-5.47219e-03	
245	1.245245e+08	9.999610e-01,	-5.47660e-03	
246	1.246246e+08	9.999609e-01,	-5.48100e-03	
247	1.247247e+08	9.999609e-01,	-5.48540e-03	
248	1.248248e+08	9.999608e-01,	-5.48980e-03	
249	1.249249e+08	9.999607e-01,	-5.49420e-03	
250	1.250250e+08	9.999607e-01,	-5.49861e-03	
251	1.251251e+08	9.999606e-01,	-5.50301e-03	
252	1.252252e+08	9.999605e-01,	-5.50741e-03	
253	1.253253e+08	9.999605e-01,	-5.51181e-03	
254	1.254254e+08	9.999604e-01,	-5.51621e-03	
255	1.255255e+08	9.999604e-01,	-5.52062e-03	
256	1.256256e+08	9.999603e-01,	-5.52502e-03	
257	1.257257e+08	9.999602e-01,	-5.52942e-03	
258	1.258258e+08	9.999602e-01,	-5.53382e-03	
259	1.259259e+08	9.999601e-01,	-5.53822e-03	
260	1.260260e+08	9.999600e-01,	-5.54263e-03	
261	1.261261e+08	9.999600e-01,	-5.54703e-03	
262	1.262262e+08	9.999599e-01,	-5.55143e-03	
263	1.263263e+08	9.999599e-01,	-5.55583e-03	
264	1.264264e+08	9.999598e-01,	-5.56023e-03	
265	1.265265e+08	9.999597e-01,	-5.56464e-03	
266	1.266266e+08	9.999597e-01,	-5.56904e-03	
267	1.267267e+08	9.999596e-01,	-5.57344e-03	
268	1.268268e+08	9.999595e-01,	-5.57784e-03	
269	1.269269e+08	9.999595e-01,	-5.58224e-03	
270	1.270270e+08	9.999594e-01,	-5.58665e-03	
271	1.271271e+08	9.999593e-01,	-5.59105e-03	
272	1.272272e+08	9.999593e-01,	-5.59545e-03	
273	1.273273e+08	9.999592e-01,	-5.59985e-03	
274	1.274274e+08	9.999591e-01,	-5.60425e-03	
275	1.275275e+08	9.999591e-01,	-5.60866e-03	
276	1.276276e+08	9.999590e-01,	-5.61306e-03	
277	1.277277e+08	9.999590e-01,	-5.61746e-03	
278	1.278278e+08	9.999589e-01,	-5.62186e-03	
279	1.279279e+08	9.999588e-01,	-5.62626e-03	
280	1.280280e+08	9.999588e-01,	-5.63066e-03	
281	1.281281e+08	9.999587e-01,	-5.63507e-03	
282	1.282282e+08	9.999586e-01,	-5.63947e-03	
283	1.283283e+08	9.999586e-01,	-5.64387e-03	
284	1.284284e+08	9.999585e-01,	-5.64827e-03	
285	1.285285e+08	9.999584e-01,	-5.65267e-03	
286	1.286286e+08	9.999584e-01,	-5.65708e-03	

Index   frequency       s11                             
--------------------------------------------------------------------------------
287	1.287287e+08	9.999583e-01,	-5.66148e-03	
288	1.288288e+08	9.999582e-01,	-5.66588e-03	
289	1.289289e+08	9.999582e-01,	-5.67028e-03	
290	1.290290e+08	9.999581e-01,	-5.67468e-03	
291	1.291291e+08	9.999580e-01,	-5.67909e-03	
292	1.292292e+08	9.999580e-01,	-5.68349e-03	
293	1.293293e+08	9.999579e-01,	-5.68789e-03	
294	1.294294e+08	9.999579e-01,	-5.69229e-03	
295	1.295295e+08	9.999578e-01,	-5.69669e-03	
296	1.296296e+08	9.999577e-01,	-5.70110e-03	
297	1.297297e+08	9.999577e-01,	-5.70550e-03	
298	1.298298e+08	9.999576e-01,	-5.70990e-03	
299	1.299299e+08	9.999575e-01,	-5.71430e-03	
300	1.300300e+08	9.999575e-01,	-5.71870e-03	
301	1.301301e+08	9.999574e-01,	-5.72310e-03	
302	1.302302e+08	9.999573e-01,	-5.72751e-03	
303	1.303303e+08	9.999573e-01,	-5.73191e-03	
304	1.304304e+08	9.999572e-01,	-5.73631e-03	
305	1.305305e+08	9.999571e-01,	-5.74071e-03	
306	1.306306e+08	9.999571e-01,	-5.74511e-03	
307	1.307307e+08	9.999570e-01,	-5.74952e-03	
308	1.308308e+08	9.999569e-01,	-5.75392e-03	
309	1.309309e+08	9.999569e-01,	-5.75832e-03	
310	1.310310e+08	9.999568e-01,	-5.76272e-03	
311	1.311311e+08	9.999567e-01,	-5.76712e-03	
312	1.312312e+08	9.999567e-01,	-5.77153e-03	
313	1.313313e+08	9.999566e-01,	-5.77593e-03	
314	1.314314e+08	9.999565e-01,	-5.78033e-03	
315	1.315315e+08	9.999565e-01,	-5.78473e-03	
316	1.316316e+08	9.999564e-01,	-5.78913e-03	
317	1.317317e+08	9.999563e-01,	-5.79354e-03	
318	1.318318e+08	9.999563e-01,	-5.79794e-03	
319	1.319319e+08	9.999562e-01,	-5.80234e-03	
320	1.320320e+08	9.999561e-01,	-5.80674e-03	
321	1.321321e+08	9.999561e-01,	-5.81114e-03	
322	1.322322e+08	9.999560e-01,	-5.81554e-03	
323	1.323323e+08	9.999559e-01,	-5.81995e-03	
324	1.324324e+08	9.999559e-01,	-5.82435e-03	
325	1.325325e+08	9.999558e-01,	-5.82875e-03	
326	1.326326e+08	9.999557e-01,	-5.83315e-03	
327	1.327327e+08	9.999557e-01,	-5.83755e-03	
328	1.328328e+08	9.999556e-01,	-5.84196e-03	
329	1.329329e+08	9.999555e-01,	-5.84636e-03	
330	1.330330e+08	9.999555e-01,	-5.85076e-03	
331	1.331331e+08	9.999554e-01,	-5.85516e-03	
332	1.332332e+08	9.999553e-01,	-5.85956e-03	
333	1.333333e+08	9.999553e-01,	-5.86397e-03	
334	1.334334e+08	9.999552e-01,	-5.86837e-03	
335	1.335335e+08	9.999551e-01,	-5.87277e-03	
336	1.336336e+08	9.999551e-01,	-5.87717e-03	
337	1.337337e+08	9.999550e-01,	-5.88157e-03	
338	1.338338e+08	9.999549e-01,	-5.88597e-03	
339	1.339339e+08	9.999549e-01,	-5.89038e-03	
340	1.340340e+08	9.999548e-01,	-5.89478e-03	
341	1.341341e+08	9.999547e-01,	-5.89918e-03	
342	1.342342e+08	9.999547e-01,	-5.90358e-03	
343	1.343343e+08	9.999546e-01,	-5.90798e-03	
344	1.344344e+08	9.999545e-01,	-5.91239e-03	

Index   frequency       s11                             
--------------------------------------------------------------------------------
345	1.345345e+08	9.999545e-01,	-5.91679e-03	
346	1.346346e+08	9.999544e-01,	-5.92119e-03	
347	1.347347e+08	9.999543e-01,	-5.92559e-03	
348	1.348348e+08	9.999543e-01,	-5.92999e-03	
349	1.349349e+08	9.999542e-01,	-5.93439e-03	
350	1.350350e+08	9.999541e-01,	-5.93880e-03	
351	1.351351e+08	9.999541e-01,	-5.94320e-03	
352	1.352352e+08	9.999540e-01,	-5.94760e-03	
353	1.353353e+08	9.999539e-01,	-5.95200e-03	
354	1.354354e+08	9.999539e-01,	-5.95640e-03	
355	1.355355e+08	9.999538e-01,	-5.96081e-03	
356	1.356356e+08	9.999537e-01,	-5.96521e-03	
357	1.357357e+08	9.999536e-01,	-5.96961e-03	
358	1.358358e+08	9.999536e-01,	-5.97401e-03	
359	1.359359e+08	9.999535e-01,	-5.97841e-03	
360	1.360360e+08	9.999534e-01,	-5.98282e-03	
361	1.361361e+08	9.999534e-01,	-5.98722e-03	
362	1.362362e+08	9.999533e-01,	-5.99162e-03	
363	1.363363e+08	9.999532e-01,	-5.99602e-03	
364	1.364364e+08	9.999532e-01,	-6.00042e-03	
365	1.365365e+08	9.999531e-01,	-6.00482e-03	
366	1.366366e+08	9.999530e-01,	-6.00923e-03	
367	1.367367e+08	9.999530e-01,	-6.01363e-03	
368	1.368368e+08	9.999529e-01,	-6.01803e-03	
369	1.369369e+08	9.999528e-01,	-6.02243e-03	
370	1.370370e+08	9.999528e-01,	-6.02683e-03	
371	1.371371e+08	9.999527e-01,	-6.03124e-03	
372	1.372372e+08	9.999526e-01,	-6.03564e-03	
373	1.373373e+08	9.999525e-01,	-6.04004e-03	
374	1.374374e+08	9.999525e-01,	-6.04444e-03	
375	1.375375e+08	9.999524e-01,	-6.04884e-03	
376	1.376376e+08	9.999523e-01,	-6.05324e-03	
377	1.377377e+08	9.999523e-01,	-6.05765e-03	
378	1.378378e+08	9.999522e-01,	-6.06205e-03	
379	1.379379e+08	9.999521e-01,	-6.06645e-03	
380	1.380380e+08	9.999521e-01,	-6.07085e-03	
381	1.381381e+08	9.999520e-01,	-6.07525e-03	
382	1.382382e+08	9.999519e-01,	-6.07966e-03	
383	1.383383e+08	9.999519e-01,	-6.08406e-03	
384	1.384384e+08	9.999518e-01,	-6.08846e-03	
385	1.385385e+08	9.999517e-01,	-6.09286e-03	
386	1.386386e+08	9.999516e-01,	-6.09726e-03	
387	1.387387e+08	9.999516e-01,	-6.10166e-03	
388	1.388388e+08	9.999515e-01,	-6.10607e-03	
389	1.389389e+08	9.999514e-01,	-6.11047e-03	
390	1.390390e+08	9.999514e-01,	-6.11487e-03	
391	1.391391e+08	9.999513e-01,	-6.11927e-03	
392	1.392392e+08	9.999512e-01,	-6.12367e-03	
393	1.393393e+08	9.999512e-01,	-6.12807e-03	
394	1.394394e+08	9.999511e-01,	-6.13248e-03	
395	1.395395e+08	9.999510e-01,	-6.13688e-03	
396	1.396396e+08	9.999509e-01,	-6.14128e-03	
397	1.397397e+08	9.999509e-01,	-6.14568e-03	
398	1.398398e+08	9.999508e-01,	-6.15008e-03	
399	1.399399e+08	9.999507e-01,	-6.15449e-03	
400	1.400400e+08	9.999507e-01,	-6.15889e-03	
401	1.401401e+08	9.999506e-01,	-6.16329e-03	
402	1.402402e+08	9.999505e-01,	-6.16769e-03	

Index   frequency       s11                             
--------------------------------------------------------------------------------
403	1.403403e+08	9.999504e-01,	-6.17209e-03	
404	1.404404e+08	9.999504e-01,	-6.17649e-03	
405	1.405405e+08	9.999503e-01,	-6.18090e-03	
406	1.406406e+08	9.999502e-01,	-6.18530e-03	
407	1.407407e+08	9.999502e-01,	-6.18970e-03	
408	1.408408e+08	9.999501e-01,	-6.19410e-03	
409	1.409409e+08	9.999500e-01,	-6.19850e-03	
410	1.410410e+08	9.999500e-01,	-6.20291e-03	
411	1.411411e+08	9.999499e-01,	-6.20731e-03	
412	1.412412e+08	9.999498e-01,	-6.21171e-03	
413	1.413413e+08	9.999497e-01,	-6.21611e-03	
414	1.414414e+08	9.999497e-01,	-6.22051e-03	
415	1.415415e+08	9.999496e-01,	-6.22491e-03	
416	1.416416e+08	9.999495e-01,	-6.22932e-03	
