 * gnetlist -g spice-noqsi -o test_active_inductor.net test_active_inductor.sch
 AC Analysis  Sat Apr 14 22:40:56  2018
--------------------------------------------------------------------------------
Index   frequency       s11                             
--------------------------------------------------------------------------------
0	1.000000e+08	5.041868e-01,	-2.48784e-03	
1	1.001001e+08	5.041868e-01,	-2.49033e-03	
2	1.002002e+08	5.041868e-01,	-2.49282e-03	
3	1.003003e+08	5.041868e-01,	-2.49531e-03	
4	1.004004e+08	5.041867e-01,	-2.49780e-03	
5	1.005005e+08	5.041867e-01,	-2.50029e-03	
6	1.006006e+08	5.041867e-01,	-2.50278e-03	
7	1.007007e+08	5.041867e-01,	-2.50527e-03	
8	1.008008e+08	5.041867e-01,	-2.50776e-03	
9	1.009009e+08	5.041867e-01,	-2.51025e-03	
10	1.010010e+08	5.041867e-01,	-2.51274e-03	
11	1.011011e+08	5.041867e-01,	-2.51523e-03	
12	1.012012e+08	5.041867e-01,	-2.51772e-03	
13	1.013013e+08	5.041867e-01,	-2.52022e-03	
14	1.014014e+08	5.041867e-01,	-2.52271e-03	
15	1.015015e+08	5.041867e-01,	-2.52520e-03	
16	1.016016e+08	5.041866e-01,	-2.52769e-03	
17	1.017017e+08	5.041866e-01,	-2.53018e-03	
18	1.018018e+08	5.041866e-01,	-2.53267e-03	
19	1.019019e+08	5.041866e-01,	-2.53516e-03	
20	1.020020e+08	5.041866e-01,	-2.53765e-03	
21	1.021021e+08	5.041866e-01,	-2.54014e-03	
22	1.022022e+08	5.041866e-01,	-2.54263e-03	
23	1.023023e+08	5.041866e-01,	-2.54512e-03	
24	1.024024e+08	5.041866e-01,	-2.54761e-03	
25	1.025025e+08	5.041866e-01,	-2.55010e-03	
26	1.026026e+08	5.041866e-01,	-2.55259e-03	
27	1.027027e+08	5.041866e-01,	-2.55508e-03	
28	1.028028e+08	5.041865e-01,	-2.55757e-03	
29	1.029029e+08	5.041865e-01,	-2.56006e-03	
30	1.030030e+08	5.041865e-01,	-2.56255e-03	
31	1.031031e+08	5.041865e-01,	-2.56504e-03	
32	1.032032e+08	5.041865e-01,	-2.56753e-03	
33	1.033033e+08	5.041865e-01,	-2.57002e-03	
34	1.034034e+08	5.041865e-01,	-2.57251e-03	
35	1.035035e+08	5.041865e-01,	-2.57500e-03	
36	1.036036e+08	5.041865e-01,	-2.57749e-03	
37	1.037037e+08	5.041865e-01,	-2.57998e-03	
38	1.038038e+08	5.041865e-01,	-2.58247e-03	
39	1.039039e+08	5.041865e-01,	-2.58496e-03	
40	1.040040e+08	5.041864e-01,	-2.58745e-03	
41	1.041041e+08	5.041864e-01,	-2.58994e-03	
42	1.042042e+08	5.041864e-01,	-2.59243e-03	
43	1.043043e+08	5.041864e-01,	-2.59492e-03	
44	1.044044e+08	5.041864e-01,	-2.59742e-03	
45	1.045045e+08	5.041864e-01,	-2.59991e-03	
46	1.046046e+08	5.041864e-01,	-2.60240e-03	
47	1.047047e+08	5.041864e-01,	-2.60489e-03	
48	1.048048e+08	5.041864e-01,	-2.60738e-03	
49	1.049049e+08	5.041864e-01,	-2.60987e-03	
50	1.050050e+08	5.041864e-01,	-2.61236e-03	
51	1.051051e+08	5.041863e-01,	-2.61485e-03	
52	1.052052e+08	5.041863e-01,	-2.61734e-03	
53	1.053053e+08	5.041863e-01,	-2.61983e-03	
54	1.054054e+08	5.041863e-01,	-2.62232e-03	

Index   frequency       s11                             
--------------------------------------------------------------------------------
55	1.055055e+08	5.041863e-01,	-2.62481e-03	
56	1.056056e+08	5.041863e-01,	-2.62730e-03	
57	1.057057e+08	5.041863e-01,	-2.62979e-03	
58	1.058058e+08	5.041863e-01,	-2.63228e-03	
59	1.059059e+08	5.041863e-01,	-2.63477e-03	
60	1.060060e+08	5.041863e-01,	-2.63726e-03	
61	1.061061e+08	5.041863e-01,	-2.63975e-03	
62	1.062062e+08	5.041863e-01,	-2.64224e-03	
63	1.063063e+08	5.041862e-01,	-2.64473e-03	
64	1.064064e+08	5.041862e-01,	-2.64722e-03	
65	1.065065e+08	5.041862e-01,	-2.64971e-03	
66	1.066066e+08	5.041862e-01,	-2.65220e-03	
67	1.067067e+08	5.041862e-01,	-2.65469e-03	
68	1.068068e+08	5.041862e-01,	-2.65718e-03	
69	1.069069e+08	5.041862e-01,	-2.65967e-03	
70	1.070070e+08	5.041862e-01,	-2.66216e-03	
71	1.071071e+08	5.041862e-01,	-2.66465e-03	
72	1.072072e+08	5.041862e-01,	-2.66714e-03	
73	1.073073e+08	5.041862e-01,	-2.66963e-03	
74	1.074074e+08	5.041861e-01,	-2.67212e-03	
75	1.075075e+08	5.041861e-01,	-2.67461e-03	
76	1.076076e+08	5.041861e-01,	-2.67711e-03	
77	1.077077e+08	5.041861e-01,	-2.67960e-03	
78	1.078078e+08	5.041861e-01,	-2.68209e-03	
79	1.079079e+08	5.041861e-01,	-2.68458e-03	
80	1.080080e+08	5.041861e-01,	-2.68707e-03	
81	1.081081e+08	5.041861e-01,	-2.68956e-03	
82	1.082082e+08	5.041861e-01,	-2.69205e-03	
83	1.083083e+08	5.041861e-01,	-2.69454e-03	
84	1.084084e+08	5.041861e-01,	-2.69703e-03	
85	1.085085e+08	5.041860e-01,	-2.69952e-03	
86	1.086086e+08	5.041860e-01,	-2.70201e-03	
87	1.087087e+08	5.041860e-01,	-2.70450e-03	
88	1.088088e+08	5.041860e-01,	-2.70699e-03	
89	1.089089e+08	5.041860e-01,	-2.70948e-03	
90	1.090090e+08	5.041860e-01,	-2.71197e-03	
91	1.091091e+08	5.041860e-01,	-2.71446e-03	
92	1.092092e+08	5.041860e-01,	-2.71695e-03	
93	1.093093e+08	5.041860e-01,	-2.71944e-03	
94	1.094094e+08	5.041860e-01,	-2.72193e-03	
95	1.095095e+08	5.041860e-01,	-2.72442e-03	
96	1.096096e+08	5.041859e-01,	-2.72691e-03	
97	1.097097e+08	5.041859e-01,	-2.72940e-03	
98	1.098098e+08	5.041859e-01,	-2.73189e-03	
99	1.099099e+08	5.041859e-01,	-2.73438e-03	
100	1.100100e+08	5.041859e-01,	-2.73687e-03	
101	1.101101e+08	5.041859e-01,	-2.73936e-03	
102	1.102102e+08	5.041859e-01,	-2.74185e-03	
103	1.103103e+08	5.041859e-01,	-2.74434e-03	
104	1.104104e+08	5.041859e-01,	-2.74683e-03	
105	1.105105e+08	5.041859e-01,	-2.74932e-03	
106	1.106106e+08	5.041859e-01,	-2.75181e-03	
107	1.107107e+08	5.041858e-01,	-2.75430e-03	
108	1.108108e+08	5.041858e-01,	-2.75680e-03	
109	1.109109e+08	5.041858e-01,	-2.75929e-03	
110	1.110110e+08	5.041858e-01,	-2.76178e-03	
111	1.111111e+08	5.041858e-01,	-2.76427e-03	
112	1.112112e+08	5.041858e-01,	-2.76676e-03	

Index   frequency       s11                             
--------------------------------------------------------------------------------
113	1.113113e+08	5.041858e-01,	-2.76925e-03	
114	1.114114e+08	5.041858e-01,	-2.77174e-03	
115	1.115115e+08	5.041858e-01,	-2.77423e-03	
116	1.116116e+08	5.041858e-01,	-2.77672e-03	
117	1.117117e+08	5.041858e-01,	-2.77921e-03	
118	1.118118e+08	5.041857e-01,	-2.78170e-03	
119	1.119119e+08	5.041857e-01,	-2.78419e-03	
120	1.120120e+08	5.041857e-01,	-2.78668e-03	
121	1.121121e+08	5.041857e-01,	-2.78917e-03	
122	1.122122e+08	5.041857e-01,	-2.79166e-03	
123	1.123123e+08	5.041857e-01,	-2.79415e-03	
124	1.124124e+08	5.041857e-01,	-2.79664e-03	
125	1.125125e+08	5.041857e-01,	-2.79913e-03	
126	1.126126e+08	5.041857e-01,	-2.80162e-03	
127	1.127127e+08	5.041857e-01,	-2.80411e-03	
128	1.128128e+08	5.041857e-01,	-2.80660e-03	
129	1.129129e+08	5.041856e-01,	-2.80909e-03	
130	1.130130e+08	5.041856e-01,	-2.81158e-03	
131	1.131131e+08	5.041856e-01,	-2.81407e-03	
132	1.132132e+08	5.041856e-01,	-2.81656e-03	
133	1.133133e+08	5.041856e-01,	-2.81905e-03	
134	1.134134e+08	5.041856e-01,	-2.82154e-03	
135	1.135135e+08	5.041856e-01,	-2.82403e-03	
136	1.136136e+08	5.041856e-01,	-2.82652e-03	
137	1.137137e+08	5.041856e-01,	-2.82901e-03	
138	1.138138e+08	5.041856e-01,	-2.83150e-03	
139	1.139139e+08	5.041856e-01,	-2.83399e-03	
140	1.140140e+08	5.041855e-01,	-2.83649e-03	
141	1.141141e+08	5.041855e-01,	-2.83898e-03	
142	1.142142e+08	5.041855e-01,	-2.84147e-03	
143	1.143143e+08	5.041855e-01,	-2.84396e-03	
144	1.144144e+08	5.041855e-01,	-2.84645e-03	
145	1.145145e+08	5.041855e-01,	-2.84894e-03	
146	1.146146e+08	5.041855e-01,	-2.85143e-03	
147	1.147147e+08	5.041855e-01,	-2.85392e-03	
148	1.148148e+08	5.041855e-01,	-2.85641e-03	
149	1.149149e+08	5.041855e-01,	-2.85890e-03	
150	1.150150e+08	5.041854e-01,	-2.86139e-03	
151	1.151151e+08	5.041854e-01,	-2.86388e-03	
152	1.152152e+08	5.041854e-01,	-2.86637e-03	
153	1.153153e+08	5.041854e-01,	-2.86886e-03	
154	1.154154e+08	5.041854e-01,	-2.87135e-03	
155	1.155155e+08	5.041854e-01,	-2.87384e-03	
156	1.156156e+08	5.041854e-01,	-2.87633e-03	
157	1.157157e+08	5.041854e-01,	-2.87882e-03	
158	1.158158e+08	5.041854e-01,	-2.88131e-03	
159	1.159159e+08	5.041854e-01,	-2.88380e-03	
160	1.160160e+08	5.041854e-01,	-2.88629e-03	
161	1.161161e+08	5.041853e-01,	-2.88878e-03	
162	1.162162e+08	5.041853e-01,	-2.89127e-03	
163	1.163163e+08	5.041853e-01,	-2.89376e-03	
164	1.164164e+08	5.041853e-01,	-2.89625e-03	
165	1.165165e+08	5.041853e-01,	-2.89874e-03	
166	1.166166e+08	5.041853e-01,	-2.90123e-03	
167	1.167167e+08	5.041853e-01,	-2.90372e-03	
168	1.168168e+08	5.041853e-01,	-2.90621e-03	
169	1.169169e+08	5.041853e-01,	-2.90870e-03	
170	1.170170e+08	5.041853e-01,	-2.91119e-03	

Index   frequency       s11                             
--------------------------------------------------------------------------------
171	1.171171e+08	5.041852e-01,	-2.91368e-03	
172	1.172172e+08	5.041852e-01,	-2.91618e-03	
173	1.173173e+08	5.041852e-01,	-2.91867e-03	
174	1.174174e+08	5.041852e-01,	-2.92116e-03	
175	1.175175e+08	5.041852e-01,	-2.92365e-03	
176	1.176176e+08	5.041852e-01,	-2.92614e-03	
177	1.177177e+08	5.041852e-01,	-2.92863e-03	
178	1.178178e+08	5.041852e-01,	-2.93112e-03	
179	1.179179e+08	5.041852e-01,	-2.93361e-03	
180	1.180180e+08	5.041852e-01,	-2.93610e-03	
181	1.181181e+08	5.041852e-01,	-2.93859e-03	
182	1.182182e+08	5.041851e-01,	-2.94108e-03	
183	1.183183e+08	5.041851e-01,	-2.94357e-03	
184	1.184184e+08	5.041851e-01,	-2.94606e-03	
185	1.185185e+08	5.041851e-01,	-2.94855e-03	
186	1.186186e+08	5.041851e-01,	-2.95104e-03	
187	1.187187e+08	5.041851e-01,	-2.95353e-03	
188	1.188188e+08	5.041851e-01,	-2.95602e-03	
189	1.189189e+08	5.041851e-01,	-2.95851e-03	
190	1.190190e+08	5.041851e-01,	-2.96100e-03	
191	1.191191e+08	5.041851e-01,	-2.96349e-03	
192	1.192192e+08	5.041850e-01,	-2.96598e-03	
193	1.193193e+08	5.041850e-01,	-2.96847e-03	
194	1.194194e+08	5.041850e-01,	-2.97096e-03	
195	1.195195e+08	5.041850e-01,	-2.97345e-03	
196	1.196196e+08	5.041850e-01,	-2.97594e-03	
197	1.197197e+08	5.041850e-01,	-2.97843e-03	
198	1.198198e+08	5.041850e-01,	-2.98092e-03	
199	1.199199e+08	5.041850e-01,	-2.98341e-03	
200	1.200200e+08	5.041850e-01,	-2.98590e-03	
201	1.201201e+08	5.041850e-01,	-2.98839e-03	
202	1.202202e+08	5.041849e-01,	-2.99088e-03	
203	1.203203e+08	5.041849e-01,	-2.99337e-03	
204	1.204204e+08	5.041849e-01,	-2.99587e-03	
205	1.205205e+08	5.041849e-01,	-2.99836e-03	
206	1.206206e+08	5.041849e-01,	-3.00085e-03	
207	1.207207e+08	5.041849e-01,	-3.00334e-03	
208	1.208208e+08	5.041849e-01,	-3.00583e-03	
209	1.209209e+08	5.041849e-01,	-3.00832e-03	
210	1.210210e+08	5.041849e-01,	-3.01081e-03	
211	1.211211e+08	5.041849e-01,	-3.01330e-03	
212	1.212212e+08	5.041848e-01,	-3.01579e-03	
213	1.213213e+08	5.041848e-01,	-3.01828e-03	
214	1.214214e+08	5.041848e-01,	-3.02077e-03	
215	1.215215e+08	5.041848e-01,	-3.02326e-03	
216	1.216216e+08	5.041848e-01,	-3.02575e-03	
217	1.217217e+08	5.041848e-01,	-3.02824e-03	
218	1.218218e+08	5.041848e-01,	-3.03073e-03	
219	1.219219e+08	5.041848e-01,	-3.03322e-03	
220	1.220220e+08	5.041848e-01,	-3.03571e-03	
221	1.221221e+08	5.041848e-01,	-3.03820e-03	
222	1.222222e+08	5.041847e-01,	-3.04069e-03	
223	1.223223e+08	5.041847e-01,	-3.04318e-03	
224	1.224224e+08	5.041847e-01,	-3.04567e-03	
225	1.225225e+08	5.041847e-01,	-3.04816e-03	
226	1.226226e+08	5.041847e-01,	-3.05065e-03	
227	1.227227e+08	5.041847e-01,	-3.05314e-03	
228	1.228228e+08	5.041847e-01,	-3.05563e-03	

Index   frequency       s11                             
--------------------------------------------------------------------------------
229	1.229229e+08	5.041847e-01,	-3.05812e-03	
230	1.230230e+08	5.041847e-01,	-3.06061e-03	
231	1.231231e+08	5.041847e-01,	-3.06310e-03	
232	1.232232e+08	5.041846e-01,	-3.06559e-03	
233	1.233233e+08	5.041846e-01,	-3.06808e-03	
234	1.234234e+08	5.041846e-01,	-3.07057e-03	
235	1.235235e+08	5.041846e-01,	-3.07306e-03	
236	1.236236e+08	5.041846e-01,	-3.07555e-03	
237	1.237237e+08	5.041846e-01,	-3.07805e-03	
238	1.238238e+08	5.041846e-01,	-3.08054e-03	
239	1.239239e+08	5.041846e-01,	-3.08303e-03	
240	1.240240e+08	5.041846e-01,	-3.08552e-03	
241	1.241241e+08	5.041846e-01,	-3.08801e-03	
242	1.242242e+08	5.041845e-01,	-3.09050e-03	
243	1.243243e+08	5.041845e-01,	-3.09299e-03	
244	1.244244e+08	5.041845e-01,	-3.09548e-03	
245	1.245245e+08	5.041845e-01,	-3.09797e-03	
246	1.246246e+08	5.041845e-01,	-3.10046e-03	
247	1.247247e+08	5.041845e-01,	-3.10295e-03	
248	1.248248e+08	5.041845e-01,	-3.10544e-03	
249	1.249249e+08	5.041845e-01,	-3.10793e-03	
250	1.250250e+08	5.041845e-01,	-3.11042e-03	
251	1.251251e+08	5.041845e-01,	-3.11291e-03	
252	1.252252e+08	5.041844e-01,	-3.11540e-03	
253	1.253253e+08	5.041844e-01,	-3.11789e-03	
254	1.254254e+08	5.041844e-01,	-3.12038e-03	
255	1.255255e+08	5.041844e-01,	-3.12287e-03	
256	1.256256e+08	5.041844e-01,	-3.12536e-03	
257	1.257257e+08	5.041844e-01,	-3.12785e-03	
258	1.258258e+08	5.041844e-01,	-3.13034e-03	
259	1.259259e+08	5.041844e-01,	-3.13283e-03	
260	1.260260e+08	5.041844e-01,	-3.13532e-03	
261	1.261261e+08	5.041843e-01,	-3.13781e-03	
262	1.262262e+08	5.041843e-01,	-3.14030e-03	
263	1.263263e+08	5.041843e-01,	-3.14279e-03	
264	1.264264e+08	5.041843e-01,	-3.14528e-03	
265	1.265265e+08	5.041843e-01,	-3.14777e-03	
266	1.266266e+08	5.041843e-01,	-3.15026e-03	
267	1.267267e+08	5.041843e-01,	-3.15275e-03	
268	1.268268e+08	5.041843e-01,	-3.15524e-03	
269	1.269269e+08	5.041843e-01,	-3.15773e-03	
270	1.270270e+08	5.041843e-01,	-3.16023e-03	
271	1.271271e+08	5.041842e-01,	-3.16272e-03	
272	1.272272e+08	5.041842e-01,	-3.16521e-03	
273	1.273273e+08	5.041842e-01,	-3.16770e-03	
274	1.274274e+08	5.041842e-01,	-3.17019e-03	
275	1.275275e+08	5.041842e-01,	-3.17268e-03	
276	1.276276e+08	5.041842e-01,	-3.17517e-03	
277	1.277277e+08	5.041842e-01,	-3.17766e-03	
278	1.278278e+08	5.041842e-01,	-3.18015e-03	
279	1.279279e+08	5.041842e-01,	-3.18264e-03	
280	1.280280e+08	5.041841e-01,	-3.18513e-03	
281	1.281281e+08	5.041841e-01,	-3.18762e-03	
282	1.282282e+08	5.041841e-01,	-3.19011e-03	
283	1.283283e+08	5.041841e-01,	-3.19260e-03	
284	1.284284e+08	5.041841e-01,	-3.19509e-03	
285	1.285285e+08	5.041841e-01,	-3.19758e-03	
286	1.286286e+08	5.041841e-01,	-3.20007e-03	

Index   frequency       s11                             
--------------------------------------------------------------------------------
287	1.287287e+08	5.041841e-01,	-3.20256e-03	
288	1.288288e+08	5.041841e-01,	-3.20505e-03	
289	1.289289e+08	5.041841e-01,	-3.20754e-03	
290	1.290290e+08	5.041840e-01,	-3.21003e-03	
291	1.291291e+08	5.041840e-01,	-3.21252e-03	
292	1.292292e+08	5.041840e-01,	-3.21501e-03	
293	1.293293e+08	5.041840e-01,	-3.21750e-03	
294	1.294294e+08	5.041840e-01,	-3.21999e-03	
295	1.295295e+08	5.041840e-01,	-3.22248e-03	
296	1.296296e+08	5.041840e-01,	-3.22497e-03	
297	1.297297e+08	5.041840e-01,	-3.22746e-03	
298	1.298298e+08	5.041840e-01,	-3.22995e-03	
299	1.299299e+08	5.041839e-01,	-3.23244e-03	
300	1.300300e+08	5.041839e-01,	-3.23493e-03	
301	1.301301e+08	5.041839e-01,	-3.23742e-03	
302	1.302302e+08	5.041839e-01,	-3.23992e-03	
303	1.303303e+08	5.041839e-01,	-3.24241e-03	
304	1.304304e+08	5.041839e-01,	-3.24490e-03	
305	1.305305e+08	5.041839e-01,	-3.24739e-03	
306	1.306306e+08	5.041839e-01,	-3.24988e-03	
307	1.307307e+08	5.041839e-01,	-3.25237e-03	
308	1.308308e+08	5.041838e-01,	-3.25486e-03	
309	1.309309e+08	5.041838e-01,	-3.25735e-03	
310	1.310310e+08	5.041838e-01,	-3.25984e-03	
311	1.311311e+08	5.041838e-01,	-3.26233e-03	
312	1.312312e+08	5.041838e-01,	-3.26482e-03	
313	1.313313e+08	5.041838e-01,	-3.26731e-03	
314	1.314314e+08	5.041838e-01,	-3.26980e-03	
315	1.315315e+08	5.041838e-01,	-3.27229e-03	
316	1.316316e+08	5.041838e-01,	-3.27478e-03	
317	1.317317e+08	5.041838e-01,	-3.27727e-03	
318	1.318318e+08	5.041837e-01,	-3.27976e-03	
319	1.319319e+08	5.041837e-01,	-3.28225e-03	
320	1.320320e+08	5.041837e-01,	-3.28474e-03	
321	1.321321e+08	5.041837e-01,	-3.28723e-03	
322	1.322322e+08	5.041837e-01,	-3.28972e-03	
323	1.323323e+08	5.041837e-01,	-3.29221e-03	
324	1.324324e+08	5.041837e-01,	-3.29470e-03	
325	1.325325e+08	5.041837e-01,	-3.29719e-03	
326	1.326326e+08	5.041837e-01,	-3.29968e-03	
327	1.327327e+08	5.041836e-01,	-3.30217e-03	
328	1.328328e+08	5.041836e-01,	-3.30466e-03	
329	1.329329e+08	5.041836e-01,	-3.30715e-03	
330	1.330330e+08	5.041836e-01,	-3.30964e-03	
331	1.331331e+08	5.041836e-01,	-3.31213e-03	
332	1.332332e+08	5.041836e-01,	-3.31462e-03	
333	1.333333e+08	5.041836e-01,	-3.31711e-03	
334	1.334334e+08	5.041836e-01,	-3.31960e-03	
335	1.335335e+08	5.041836e-01,	-3.32210e-03	
336	1.336336e+08	5.041835e-01,	-3.32459e-03	
337	1.337337e+08	5.041835e-01,	-3.32708e-03	
338	1.338338e+08	5.041835e-01,	-3.32957e-03	
339	1.339339e+08	5.041835e-01,	-3.33206e-03	
340	1.340340e+08	5.041835e-01,	-3.33455e-03	
341	1.341341e+08	5.041835e-01,	-3.33704e-03	
342	1.342342e+08	5.041835e-01,	-3.33953e-03	
343	1.343343e+08	5.041835e-01,	-3.34202e-03	
344	1.344344e+08	5.041835e-01,	-3.34451e-03	

Index   frequency       s11                             
--------------------------------------------------------------------------------
345	1.345345e+08	5.041834e-01,	-3.34700e-03	
346	1.346346e+08	5.041834e-01,	-3.34949e-03	
347	1.347347e+08	5.041834e-01,	-3.35198e-03	
348	1.348348e+08	5.041834e-01,	-3.35447e-03	
349	1.349349e+08	5.041834e-01,	-3.35696e-03	
350	1.350350e+08	5.041834e-01,	-3.35945e-03	
351	1.351351e+08	5.041834e-01,	-3.36194e-03	
352	1.352352e+08	5.041834e-01,	-3.36443e-03	
353	1.353353e+08	5.041834e-01,	-3.36692e-03	
354	1.354354e+08	5.041833e-01,	-3.36941e-03	
355	1.355355e+08	5.041833e-01,	-3.37190e-03	
356	1.356356e+08	5.041833e-01,	-3.37439e-03	
357	1.357357e+08	5.041833e-01,	-3.37688e-03	
358	1.358358e+08	5.041833e-01,	-3.37937e-03	
359	1.359359e+08	5.041833e-01,	-3.38186e-03	
360	1.360360e+08	5.041833e-01,	-3.38435e-03	
361	1.361361e+08	5.041833e-01,	-3.38684e-03	
362	1.362362e+08	5.041833e-01,	-3.38933e-03	
363	1.363363e+08	5.041832e-01,	-3.39182e-03	
364	1.364364e+08	5.041832e-01,	-3.39431e-03	
365	1.365365e+08	5.041832e-01,	-3.39680e-03	
366	1.366366e+08	5.041832e-01,	-3.39929e-03	
367	1.367367e+08	5.041832e-01,	-3.40178e-03	
368	1.368368e+08	5.041832e-01,	-3.40427e-03	
369	1.369369e+08	5.041832e-01,	-3.40677e-03	
370	1.370370e+08	5.041832e-01,	-3.40926e-03	
371	1.371371e+08	5.041832e-01,	-3.41175e-03	
372	1.372372e+08	5.041831e-01,	-3.41424e-03	
373	1.373373e+08	5.041831e-01,	-3.41673e-03	
374	1.374374e+08	5.041831e-01,	-3.41922e-03	
375	1.375375e+08	5.041831e-01,	-3.42171e-03	
376	1.376376e+08	5.041831e-01,	-3.42420e-03	
377	1.377377e+08	5.041831e-01,	-3.42669e-03	
378	1.378378e+08	5.041831e-01,	-3.42918e-03	
379	1.379379e+08	5.041831e-01,	-3.43167e-03	
380	1.380380e+08	5.041831e-01,	-3.43416e-03	
381	1.381381e+08	5.041830e-01,	-3.43665e-03	
382	1.382382e+08	5.041830e-01,	-3.43914e-03	
383	1.383383e+08	5.041830e-01,	-3.44163e-03	
384	1.384384e+08	5.041830e-01,	-3.44412e-03	
385	1.385385e+08	5.041830e-01,	-3.44661e-03	
386	1.386386e+08	5.041830e-01,	-3.44910e-03	
387	1.387387e+08	5.041830e-01,	-3.45159e-03	
388	1.388388e+08	5.041830e-01,	-3.45408e-03	
389	1.389389e+08	5.041829e-01,	-3.45657e-03	
390	1.390390e+08	5.041829e-01,	-3.45906e-03	
391	1.391391e+08	5.041829e-01,	-3.46155e-03	
392	1.392392e+08	5.041829e-01,	-3.46404e-03	
393	1.393393e+08	5.041829e-01,	-3.46653e-03	
394	1.394394e+08	5.041829e-01,	-3.46902e-03	
395	1.395395e+08	5.041829e-01,	-3.47151e-03	
396	1.396396e+08	5.041829e-01,	-3.47400e-03	
397	1.397397e+08	5.041829e-01,	-3.47649e-03	
398	1.398398e+08	5.041828e-01,	-3.47898e-03	
399	1.399399e+08	5.041828e-01,	-3.48147e-03	
400	1.400400e+08	5.041828e-01,	-3.48396e-03	
401	1.401401e+08	5.041828e-01,	-3.48645e-03	
402	1.402402e+08	5.041828e-01,	-3.48895e-03	

Index   frequency       s11                             
--------------------------------------------------------------------------------
403	1.403403e+08	5.041828e-01,	-3.49144e-03	
404	1.404404e+08	5.041828e-01,	-3.49393e-03	
405	1.405405e+08	5.041828e-01,	-3.49642e-03	
406	1.406406e+08	5.041828e-01,	-3.49891e-03	
407	1.407407e+08	5.041827e-01,	-3.50140e-03	
408	1.408408e+08	5.041827e-01,	-3.50389e-03	
409	1.409409e+08	5.041827e-01,	-3.50638e-03	
410	1.410410e+08	5.041827e-01,	-3.50887e-03	
411	1.411411e+08	5.041827e-01,	-3.51136e-03	
412	1.412412e+08	5.041827e-01,	-3.51385e-03	
413	1.413413e+08	5.041827e-01,	-3.51634e-03	
414	1.414414e+08	5.041827e-01,	-3.51883e-03	
415	1.415415e+08	5.041826e-01,	-3.52132e-03	
416	1.416416e+08	5.041826e-01,	-3.52381e-03	
